
T15DC 000:195 SEGGER J-Link V4.76d Log File (0001ms, 0180ms total)
T15DC 000:195 DLL Compiled: Sep 13 2013 16:35:06 (0001ms, 0180ms total)
T15DC 000:195 Logging started @ 2019-09-25 12:02 (0002ms, 0181ms total)
T15DC 000:197 JLINK_SetWarnOutHandler(...) (0000ms, 0181ms total)
T15DC 000:197 JLINK_OpenEx(...)
Firmware: J-Link ARM-OB STM32 compiled Aug 22 2012 19:52:04
Hardware: V7.00
S/N: 20090928
Feature(s): RDI,FlashDL,FlashBP,JFlash,GDBFull  returns O.K. (0039ms, 0220ms total)
T15DC 000:236 JLINK_SetErrorOutHandler(...) (0000ms, 0220ms total)
T15DC 000:236 JLINK_ExecCommand("ProjectFile = "F:\佳显电子\新产品开发\新产品开发―电子纸\2.7单色\4灰阶驱动程序\GDEW027W3_4Gray_P-20190924\Project\JLinkSettings.ini"", ...)  returns 0x00 (0001ms, 0221ms total)
T15DC 000:250 JLINK_ExecCommand("Device = STM32F103VE", ...)
                JLINK_AddMirrorAreaEx(Addr = 0x00000000, Size = 0x00000000) (0001ms, 0001ms total)
              Device "STM32F103VE" selected (512 KB flash, 64 KB RAM).  returns 0x00 (0024ms, 0246ms total)
T15DC 000:274 JLINK_ExecCommand("DisableConnectionTimeout", ...)  returns 0x01 (0000ms, 0246ms total)
T15DC 000:274 JLINK_GetHardwareVersion()  returns 0x11170 (0000ms, 0246ms total)
T15DC 000:274 JLINK_GetDLLVersion()  returns 47604 (0000ms, 0246ms total)
T15DC 000:274 JLINK_GetFirmwareString(...) (0000ms, 0246ms total)
T15DC 000:326 JLINK_GetDLLVersion()  returns 47604 (0000ms, 0246ms total)
T15DC 000:326 JLINK_GetCompileDateTime() (0000ms, 0246ms total)
T15DC 000:335 JLINK_GetFirmwareString(...) (0000ms, 0246ms total)
T15DC 000:340 JLINK_GetHardwareVersion()  returns 0x11170 (0000ms, 0246ms total)
T15DC 000:371 JLINK_TIF_Select(JLINKARM_TIF_SWD)  returns 0x00 (0004ms, 0250ms total)
T15DC 000:375 JLINK_SetSpeed(5000) (0001ms, 0251ms total)
T15DC 000:376 JLINK_GetId() >0x108 TIF>Found SWD-DP with ID 0x1BA01477 >0x0D TIF> >0x28 TIF> >0x0D TIF> >0x28 TIF> >0x0D TIF> >0x21 TIF> >0x0D TIF> >0x28 TIF> >0x0D TIF> >0x28 TIF> >0x0D TIF> >0x28 TIF> >0x0D TIF> >0x21 TIF> >0x0D TIF> >0x21 TIF> >0x0D TIF> >0x28 TIF> >0x0D TIF> >0x21 TIF> >0x0D TIF> >0x21 TIF> >0x108 TIF>Found SWD-DP with ID 0x1BA01477 >0x0D TIF> >0x21 TIF> >0x0D TIF> >0x28 TIF> >0x0D TIF> >0x28 TIF> >0x0D TIF> >0x21 TIF> >0x0D TIF> >0x28 TIF> >0x0D TIF> >0x21 TIF> >0x0D TIF> >0x21 TIF>
 >0x0D TIF> >0x21 TIF> >0x0D TIF> >0x21 TIF> >0x0D TIF> >0x28 TIF> >0x0D TIF> >0x28 TIF> >0x0D TIF> >0x21 TIF> >0x0D TIF> >0x28 TIF> >0x0D TIF> >0x28 TIF> >0x0D TIF> >0x28 TIF> >0x0D TIF> >0x21 TIF> >0x0D TIF> >0x21 TIF> >0x0D TIF> >0x28 TIF> >0x0D TIF> >0x21 TIF> >0x0D TIF> >0x21 TIF>Found Cortex-M3 r1p1, Little endian. -- CPU_WriteMem(4 bytes @ 0xE0002000) -- CPU_ReadMem(4 bytes @ 0xE000EDF0) -- CPU_ReadMem(4 bytes @ 0xE0002000)FPUnit: 6 code (BP) slots and 2 literal slots
 -- CPU_ReadMem(4 bytes @ 0xE000EDFC) -- CPU_ReadMem(4 bytes @ 0xE0001000) -- CPU_WriteMem(4 bytes @ 0xE0001000) -- CPU_ReadMem(4 bytes @ 0xE00FF010)TPIU fitted. -- CPU_ReadMem(4 bytes @ 0xE00FF014)ETM fitted. -- CPU_ReadMem(4 bytes @ 0xE00FF018) >0x0D TIF> >0x21 TIF>  returns 0x1BA01477 (0127ms, 0378ms total)
T15DC 000:504 JLINK_GetDeviceFamily()  returns 3 (0000ms, 0378ms total)
T15DC 000:510 JLINK_ReadMem (0xE00FFFF0, 0x0010 Bytes, ...) -- CPU is running -- CPU_ReadMem(16 bytes @ 0xE00FFFF0) -- Data:  0D 00 00 00 10 00 00 00 05 00 00 00 B1 00 00 00  returns 0x00 (0002ms, 0380ms total)
T15DC 000:512 JLINK_ReadMem (0xE00FFFD0, 0x0020 Bytes, ...) -- CPU is running -- CPU_ReadMem(32 bytes @ 0xE00FFFD0) -- Data:  00 00 00 00 00 00 00 00 00 00 00 00 00 00 00 00 ...  returns 0x00 (0002ms, 0382ms total)
T15DC 000:514 JLINK_ReadMem (0xE00FF000, 0x0018 Bytes, ...) -- CPU is running -- CPU_ReadMem(24 bytes @ 0xE00FF000) -- Data:  03 F0 F0 FF 03 20 F0 FF 03 30 F0 FF 03 10 F0 FF ...  returns 0x00 (0002ms, 0384ms total)
T15DC 000:516 JLINK_ReadMemU32(0xE000ED00, 0x0001 Items, ...) -- CPU is running -- CPU_ReadMem(4 bytes @ 0xE000ED00) -- Data:  31 C2 1F 41  returns 0x01 (0002ms, 0386ms total)
T15DC 000:518 JLINK_SetResetType(JLINKARM_RESET_TYPE_NORMAL)  returns JLINKARM_RESET_TYPE_NORMAL (0000ms, 0386ms total)
T15DC 000:518 JLINK_Reset() -- CPU is running -- CPU_WriteMem(4 bytes @ 0xE000EDF0) -- CPU is running -- CPU_WriteMem(4 bytes @ 0xE000EDFC) >0x35 TIF> -- CPU is running -- CPU_WriteMem(4 bytes @ 0xE000ED0C) -- CPU is running -- CPU_ReadMem(4 bytes @ 0xE000EDF0) -- CPU is running -- CPU_ReadMem(4 bytes @ 0xE000EDF0) -- CPU is running -- CPU_WriteMem(4 bytes @ 0xE000EDF0) -- CPU is running -- CPU_WriteMem(4 bytes @ 0xE000EDFC) -- CPU is running -- CPU_ReadMem(4 bytes @ 0xE000EDF0)
 -- CPU_WriteMem(4 bytes @ 0xE0002000) (0025ms, 0411ms total)
T15DC 000:543 JLINK_Halt()  returns 0x00 (0000ms, 0411ms total)
T15DC 000:543 JLINK_IsHalted()  returns TRUE (0001ms, 0412ms total)
T15DC 000:544 JLINK_ReadMemU32(0xE000EDF0, 0x0001 Items, ...) -- CPU_ReadMem(4 bytes @ 0xE000EDF0) -- Data:  03 00 03 00  returns 0x01 (0001ms, 0412ms total)
T15DC 000:545 JLINK_WriteU32(0xE000EDF0, 0xA05F0003) -- CPU_WriteMem(4 bytes @ 0xE000EDF0)  returns 0x00 (0002ms, 0414ms total)
T15DC 000:547 JLINK_WriteU32(0xE000EDFC, 0x01000000) -- CPU_WriteMem(4 bytes @ 0xE000EDFC)  returns 0x00 (0002ms, 0416ms total)
T15DC 000:581 JLINK_GetHWStatus(...)  returns 0x00 (0002ms, 0418ms total)
T15DC 000:598 JLINK_GetNumBPUnits(Type = 0xFFFFFF00)  returns 0x06 (0001ms, 0419ms total)
T15DC 000:599 JLINK_GetNumBPUnits(Type = 0xF0)  returns 0x2000 (0000ms, 0419ms total)
T15DC 000:599 JLINK_GetNumWPUnits()  returns 0x04 (0000ms, 0419ms total)
T15DC 000:616 JLINK_GetSpeed()  returns 0xFA0 (0000ms, 0419ms total)
T15DC 000:629 JLINK_ReadMemU32(0xE000E004, 0x0001 Items, ...) -- CPU_ReadMem(4 bytes @ 0xE000E004) -- Data:  01 00 00 00  returns 0x01 (0002ms, 0421ms total)
T15DC 000:631 JLINK_ReadMemU32(0xE000E004, 0x0001 Items, ...) -- CPU_ReadMem(4 bytes @ 0xE000E004) -- Data:  01 00 00 00  returns 0x01 (0001ms, 0422ms total)
T15DC 000:632 JLINK_WriteMem(0xE0001000, 0x001C Bytes, ...) -- Data:  01 00 00 00 00 00 00 00 00 00 00 00 00 00 00 00 ... -- CPU_WriteMem(28 bytes @ 0xE0001000)  returns 0x1C (0002ms, 0424ms total)
T15DC 000:634 JLINK_ReadMem (0xE0001000, 0x001C Bytes, ...) -- CPU_ReadMem(28 bytes @ 0xE0001000) -- Data:  01 00 00 40 00 00 00 00 00 00 00 00 00 00 00 00 ...  returns 0x00 (0002ms, 0426ms total)
T15DC 000:636 JLINK_Halt()  returns 0x00 (0000ms, 0426ms total)
T15DC 000:637 JLINK_IsHalted()  returns TRUE (0000ms, 0427ms total)
T15DC 000:641 JLINK_WriteMem(0x20000000, 0x0164 Bytes, ...) -- Data:  00 BE 0A E0 0D 78 2D 06 68 40 08 24 40 00 00 D3 ... -- CPU_WriteMem(356 bytes @ 0x20000000)  returns 0x164 (0005ms, 0432ms total)
T15DC 000:646 JLINK_WriteReg(R0, 0x08000000)  returns 0x00 (0000ms, 0432ms total)
T15DC 000:646 JLINK_WriteReg(R1, 0x007A1200)  returns 0x00 (0000ms, 0432ms total)
T15DC 000:646 JLINK_WriteReg(R2, 0x00000001)  returns 0x00 (0000ms, 0432ms total)
T15DC 000:646 JLINK_WriteReg(R3, 0x00000000)  returns 0x00 (0000ms, 0432ms total)
T15DC 000:646 JLINK_WriteReg(R4, 0x00000000)  returns 0x00 (0000ms, 0432ms total)
T15DC 000:646 JLINK_WriteReg(R5, 0x00000000)  returns 0x00 (0000ms, 0432ms total)
T15DC 000:646 JLINK_WriteReg(R6, 0x00000000)  returns 0x00 (0000ms, 0432ms total)
T15DC 000:646 JLINK_WriteReg(R7, 0x00000000)  returns 0x00 (0000ms, 0432ms total)
T15DC 000:646 JLINK_WriteReg(R8, 0x00000000)  returns 0x00 (0000ms, 0432ms total)
T15DC 000:646 JLINK_WriteReg(R9, 0x20000160)  returns 0x00 (0001ms, 0433ms total)
T15DC 000:647 JLINK_WriteReg(R10, 0x00000000)  returns 0x00 (0000ms, 0433ms total)
T15DC 000:647 JLINK_WriteReg(R11, 0x00000000)  returns 0x00 (0000ms, 0433ms total)
T15DC 000:647 JLINK_WriteReg(R12, 0x00000000)  returns 0x00 (0000ms, 0433ms total)
T15DC 000:647 JLINK_WriteReg(R13 (SP), 0x20000800)  returns 0x00 (0000ms, 0433ms total)
T15DC 000:647 JLINK_WriteReg(R14, 0x20000001)  returns 0x00 (0000ms, 0433ms total)
T15DC 000:647 JLINK_WriteReg(R15 (PC), 0x20000038)  returns 0x00 (0000ms, 0433ms total)
T15DC 000:647 JLINK_WriteReg(XPSR, 0x01000000)  returns 0x00 (0000ms, 0433ms total)
T15DC 000:647 JLINK_WriteReg(MSP, 0x20000800)  returns 0x00 (0000ms, 0433ms total)
T15DC 000:647 JLINK_WriteReg(PSP, 0x20000800)  returns 0x00 (0000ms, 0433ms total)
T15DC 000:647 JLINK_WriteReg(CFBP, 0x00000000)  returns 0x00 (0000ms, 0433ms total)
T15DC 000:647 JLINK_SetBPEx(Addr = 0x20000000, Type = 0xFFFFFFF2) -- CPU_ReadMem(2 bytes @ 0x20000000)  returns 0x00000001 (0002ms, 0435ms total)
T15DC 000:649 JLINK_Go() -- CPU_WriteMem(2 bytes @ 0x20000000) -- CPU_WriteMem(4 bytes @ 0xE0002008) -- CPU_WriteMem(4 bytes @ 0xE000200C) -- CPU_WriteMem(4 bytes @ 0xE0002010) -- CPU_WriteMem(4 bytes @ 0xE0002014) -- CPU_WriteMem(4 bytes @ 0xE0002018) -- CPU_WriteMem(4 bytes @ 0xE000201C) (0010ms, 0445ms total)
T15DC 000:659 JLINK_IsHalted() -- CPU_ReadMem(2 bytes @ 0x20000000)  returns TRUE (0005ms, 0450ms total)
T15DC 000:664 JLINK_ReadReg(R15 (PC))  returns 0x20000000 (0000ms, 0445ms total)
T15DC 000:664 JLINK_ClrBPEx(BPHandle = 0x00000001)  returns 0x00 (0000ms, 0445ms total)
T15DC 000:664 JLINK_ReadReg(R0)  returns 0x00000000 (0000ms, 0445ms total)
T15DC 000:664 JLINK_WriteReg(R0, 0x08000000)  returns 0x00 (0000ms, 0445ms total)
T15DC 000:664 JLINK_WriteReg(R1, 0x00000800)  returns 0x00 (0001ms, 0446ms total)
T15DC 000:665 JLINK_WriteReg(R2, 0x000000FF)  returns 0x00 (0000ms, 0446ms total)
T15DC 000:665 JLINK_WriteReg(R3, 0x00000000)  returns 0x00 (0000ms, 0446ms total)
T15DC 000:665 JLINK_WriteReg(R4, 0x00000000)  returns 0x00 (0000ms, 0446ms total)
T15DC 000:665 JLINK_WriteReg(R5, 0x00000000)  returns 0x00 (0000ms, 0446ms total)
T15DC 000:665 JLINK_WriteReg(R6, 0x00000000)  returns 0x00 (0000ms, 0446ms total)
T15DC 000:665 JLINK_WriteReg(R7, 0x00000000)  returns 0x00 (0000ms, 0446ms total)
T15DC 000:665 JLINK_WriteReg(R8, 0x00000000)  returns 0x00 (0000ms, 0446ms total)
T15DC 000:665 JLINK_WriteReg(R9, 0x20000160)  returns 0x00 (0000ms, 0446ms total)
T15DC 000:665 JLINK_WriteReg(R10, 0x00000000)  returns 0x00 (0000ms, 0446ms total)
T15DC 000:665 JLINK_WriteReg(R11, 0x00000000)  returns 0x00 (0000ms, 0446ms total)
T15DC 000:665 JLINK_WriteReg(R12, 0x00000000)  returns 0x00 (0001ms, 0447ms total)
T15DC 000:666 JLINK_WriteReg(R13 (SP), 0x20000800)  returns 0x00 (0000ms, 0447ms total)
T15DC 000:666 JLINK_WriteReg(R14, 0x20000001)  returns 0x00 (0000ms, 0447ms total)
T15DC 000:666 JLINK_WriteReg(R15 (PC), 0x20000020)  returns 0x00 (0000ms, 0447ms total)
T15DC 000:666 JLINK_WriteReg(XPSR, 0x01000000)  returns 0x00 (0000ms, 0447ms total)
T15DC 000:666 JLINK_WriteReg(MSP, 0x20000800)  returns 0x00 (0000ms, 0447ms total)
T15DC 000:666 JLINK_WriteReg(PSP, 0x20000800)  returns 0x00 (0000ms, 0447ms total)
T15DC 000:666 JLINK_WriteReg(CFBP, 0x00000000)  returns 0x00 (0000ms, 0447ms total)
T15DC 000:666 JLINK_SetBPEx(Addr = 0x20000000, Type = 0xFFFFFFF2)  returns 0x00000002 (0000ms, 0447ms total)
T15DC 000:666 JLINK_Go() (0003ms, 0450ms total)
T15DC 000:669 JLINK_IsHalted() -- CPU_ReadMem(2 bytes @ 0x20000000)  returns TRUE (0006ms, 0456ms total)
T15DC 000:675 JLINK_ReadReg(R15 (PC))  returns 0x20000000 (0000ms, 0450ms total)
T15DC 000:675 JLINK_ClrBPEx(BPHandle = 0x00000002)  returns 0x00 (0000ms, 0450ms total)
T15DC 000:675 JLINK_ReadReg(R0)  returns 0x00000001 (0000ms, 0450ms total)
T15DC 000:675 JLINK_WriteReg(R0, 0x08000000)  returns 0x00 (0000ms, 0450ms total)
T15DC 000:675 JLINK_WriteReg(R1, 0x00000800)  returns 0x00 (0000ms, 0450ms total)
T15DC 000:676 JLINK_WriteReg(R2, 0x000000FF)  returns 0x00 (0000ms, 0450ms total)
T15DC 000:676 JLINK_WriteReg(R3, 0x00000000)  returns 0x00 (0000ms, 0450ms total)
T15DC 000:676 JLINK_WriteReg(R4, 0x00000000)  returns 0x00 (0000ms, 0450ms total)
T15DC 000:676 JLINK_WriteReg(R5, 0x00000000)  returns 0x00 (0000ms, 0450ms total)
T15DC 000:676 JLINK_WriteReg(R6, 0x00000000)  returns 0x00 (0000ms, 0450ms total)
T15DC 000:676 JLINK_WriteReg(R7, 0x00000000)  returns 0x00 (0000ms, 0450ms total)
T15DC 000:676 JLINK_WriteReg(R8, 0x00000000)  returns 0x00 (0000ms, 0450ms total)
T15DC 000:676 JLINK_WriteReg(R9, 0x20000160)  returns 0x00 (0000ms, 0450ms total)
T15DC 000:676 JLINK_WriteReg(R10, 0x00000000)  returns 0x00 (0000ms, 0450ms total)
T15DC 000:676 JLINK_WriteReg(R11, 0x00000000)  returns 0x00 (0000ms, 0450ms total)
T15DC 000:676 JLINK_WriteReg(R12, 0x00000000)  returns 0x00 (0000ms, 0450ms total)
T15DC 000:676 JLINK_WriteReg(R13 (SP), 0x20000800)  returns 0x00 (0001ms, 0451ms total)
T15DC 000:677 JLINK_WriteReg(R14, 0x20000001)  returns 0x00 (0000ms, 0451ms total)
T15DC 000:677 JLINK_WriteReg(R15 (PC), 0x200000B6)  returns 0x00 (0000ms, 0451ms total)
T15DC 000:677 JLINK_WriteReg(XPSR, 0x01000000)  returns 0x00 (0000ms, 0451ms total)
T15DC 000:677 JLINK_WriteReg(MSP, 0x20000800)  returns 0x00 (0000ms, 0451ms total)
T15DC 000:677 JLINK_WriteReg(PSP, 0x20000800)  returns 0x00 (0000ms, 0451ms total)
T15DC 000:677 JLINK_WriteReg(CFBP, 0x00000000)  returns 0x00 (0000ms, 0451ms total)
T15DC 000:677 JLINK_SetBPEx(Addr = 0x20000000, Type = 0xFFFFFFF2)  returns 0x00000003 (0000ms, 0451ms total)
T15DC 000:677 JLINK_Go() (0003ms, 0454ms total)
T15DC 000:680 JLINK_IsHalted()  returns FALSE (0001ms, 0455ms total)
T15DC 000:746 JLINK_IsHalted() -- CPU_ReadMem(2 bytes @ 0x20000000)  returns TRUE (0005ms, 0459ms total)
T15DC 000:751 JLINK_ReadReg(R15 (PC))  returns 0x20000000 (0001ms, 0455ms total)
T15DC 000:752 JLINK_ClrBPEx(BPHandle = 0x00000003)  returns 0x00 (0000ms, 0455ms total)
T15DC 000:752 JLINK_ReadReg(R0)  returns 0x00000000 (0000ms, 0455ms total)
T15DC 000:752 JLINK_WriteReg(R0, 0x08000800)  returns 0x00 (0000ms, 0455ms total)
T15DC 000:752 JLINK_WriteReg(R1, 0x00000800)  returns 0x00 (0000ms, 0455ms total)
T15DC 000:752 JLINK_WriteReg(R2, 0x000000FF)  returns 0x00 (0000ms, 0455ms total)
T15DC 000:752 JLINK_WriteReg(R3, 0x00000000)  returns 0x00 (0000ms, 0455ms total)
T15DC 000:752 JLINK_WriteReg(R4, 0x00000000)  returns 0x00 (0000ms, 0455ms total)
T15DC 000:752 JLINK_WriteReg(R5, 0x00000000)  returns 0x00 (0000ms, 0455ms total)
T15DC 000:752 JLINK_WriteReg(R6, 0x00000000)  returns 0x00 (0000ms, 0455ms total)
T15DC 000:752 JLINK_WriteReg(R7, 0x00000000)  returns 0x00 (0000ms, 0455ms total)
T15DC 000:752 JLINK_WriteReg(R8, 0x00000000)  returns 0x00 (0000ms, 0455ms total)
T15DC 000:752 JLINK_WriteReg(R9, 0x20000160)  returns 0x00 (0000ms, 0455ms total)
T15DC 000:752 JLINK_WriteReg(R10, 0x00000000)  returns 0x00 (0000ms, 0455ms total)
T15DC 000:752 JLINK_WriteReg(R11, 0x00000000)  returns 0x00 (0001ms, 0456ms total)
T15DC 000:753 JLINK_WriteReg(R12, 0x00000000)  returns 0x00 (0000ms, 0456ms total)
T15DC 000:753 JLINK_WriteReg(R13 (SP), 0x20000800)  returns 0x00 (0000ms, 0456ms total)
T15DC 000:753 JLINK_WriteReg(R14, 0x20000001)  returns 0x00 (0000ms, 0456ms total)
T15DC 000:753 JLINK_WriteReg(R15 (PC), 0x20000020)  returns 0x00 (0000ms, 0456ms total)
T15DC 000:753 JLINK_WriteReg(XPSR, 0x01000000)  returns 0x00 (0000ms, 0456ms total)
T15DC 000:753 JLINK_WriteReg(MSP, 0x20000800)  returns 0x00 (0000ms, 0456ms total)
T15DC 000:753 JLINK_WriteReg(PSP, 0x20000800)  returns 0x00 (0000ms, 0456ms total)
T15DC 000:753 JLINK_WriteReg(CFBP, 0x00000000)  returns 0x00 (0000ms, 0456ms total)
T15DC 000:753 JLINK_SetBPEx(Addr = 0x20000000, Type = 0xFFFFFFF2)  returns 0x00000004 (0000ms, 0456ms total)
T15DC 000:753 JLINK_Go() (0003ms, 0459ms total)
T15DC 000:756 JLINK_IsHalted() -- CPU_ReadMem(2 bytes @ 0x20000000)  returns TRUE (0005ms, 0464ms total)
T15DC 000:761 JLINK_ReadReg(R15 (PC))  returns 0x20000000 (0000ms, 0459ms total)
T15DC 000:761 JLINK_ClrBPEx(BPHandle = 0x00000004)  returns 0x00 (0000ms, 0459ms total)
T15DC 000:761 JLINK_ReadReg(R0)  returns 0x00000001 (0000ms, 0459ms total)
T15DC 000:761 JLINK_WriteReg(R0, 0x08000800)  returns 0x00 (0000ms, 0459ms total)
T15DC 000:761 JLINK_WriteReg(R1, 0x00000800)  returns 0x00 (0000ms, 0459ms total)
T15DC 000:761 JLINK_WriteReg(R2, 0x000000FF)  returns 0x00 (0001ms, 0460ms total)
T15DC 000:762 JLINK_WriteReg(R3, 0x00000000)  returns 0x00 (0000ms, 0460ms total)
T15DC 000:762 JLINK_WriteReg(R4, 0x00000000)  returns 0x00 (0000ms, 0460ms total)
T15DC 000:762 JLINK_WriteReg(R5, 0x00000000)  returns 0x00 (0000ms, 0460ms total)
T15DC 000:762 JLINK_WriteReg(R6, 0x00000000)  returns 0x00 (0000ms, 0460ms total)
T15DC 000:762 JLINK_WriteReg(R7, 0x00000000)  returns 0x00 (0000ms, 0460ms total)
T15DC 000:762 JLINK_WriteReg(R8, 0x00000000)  returns 0x00 (0000ms, 0460ms total)
T15DC 000:762 JLINK_WriteReg(R9, 0x20000160)  returns 0x00 (0000ms, 0460ms total)
T15DC 000:762 JLINK_WriteReg(R10, 0x00000000)  returns 0x00 (0000ms, 0460ms total)
T15DC 000:762 JLINK_WriteReg(R11, 0x00000000)  returns 0x00 (0000ms, 0460ms total)
T15DC 000:762 JLINK_WriteReg(R12, 0x00000000)  returns 0x00 (0001ms, 0461ms total)
T15DC 000:763 JLINK_WriteReg(R13 (SP), 0x20000800)  returns 0x00 (0000ms, 0461ms total)
T15DC 000:763 JLINK_WriteReg(R14, 0x20000001)  returns 0x00 (0000ms, 0461ms total)
T15DC 000:763 JLINK_WriteReg(R15 (PC), 0x200000B6)  returns 0x00 (0000ms, 0461ms total)
T15DC 000:763 JLINK_WriteReg(XPSR, 0x01000000)  returns 0x00 (0000ms, 0461ms total)
T15DC 000:763 JLINK_WriteReg(MSP, 0x20000800)  returns 0x00 (0000ms, 0461ms total)
T15DC 000:763 JLINK_WriteReg(PSP, 0x20000800)  returns 0x00 (0000ms, 0461ms total)
T15DC 000:763 JLINK_WriteReg(CFBP, 0x00000000)  returns 0x00 (0000ms, 0461ms total)
T15DC 000:763 JLINK_SetBPEx(Addr = 0x20000000, Type = 0xFFFFFFF2)  returns 0x00000005 (0000ms, 0461ms total)
T15DC 000:763 JLINK_Go() (0003ms, 0464ms total)
T15DC 000:766 JLINK_IsHalted()  returns FALSE (0001ms, 0465ms total)
T15DC 000:770 JLINK_IsHalted()  returns FALSE (0001ms, 0465ms total)
T15DC 000:772 JLINK_IsHalted()  returns FALSE (0001ms, 0465ms total)
T15DC 000:774 JLINK_IsHalted()  returns FALSE (0001ms, 0465ms total)
T15DC 000:776 JLINK_IsHalted()  returns FALSE (0001ms, 0465ms total)
T15DC 000:778 JLINK_IsHalted()  returns FALSE (0001ms, 0465ms total)
T15DC 000:789 JLINK_IsHalted() -- CPU_ReadMem(2 bytes @ 0x20000000)  returns TRUE (0005ms, 0469ms total)
T15DC 000:794 JLINK_ReadReg(R15 (PC))  returns 0x20000000 (0001ms, 0465ms total)
T15DC 000:795 JLINK_ClrBPEx(BPHandle = 0x00000005)  returns 0x00 (0000ms, 0465ms total)
T15DC 000:795 JLINK_ReadReg(R0)  returns 0x00000000 (0000ms, 0465ms total)
T15DC 000:795 JLINK_WriteReg(R0, 0x08001000)  returns 0x00 (0000ms, 0465ms total)
T15DC 000:795 JLINK_WriteReg(R1, 0x00000800)  returns 0x00 (0000ms, 0465ms total)
T15DC 000:795 JLINK_WriteReg(R2, 0x000000FF)  returns 0x00 (0000ms, 0465ms total)
T15DC 000:795 JLINK_WriteReg(R3, 0x00000000)  returns 0x00 (0000ms, 0465ms total)
T15DC 000:795 JLINK_WriteReg(R4, 0x00000000)  returns 0x00 (0000ms, 0465ms total)
T15DC 000:795 JLINK_WriteReg(R5, 0x00000000)  returns 0x00 (0000ms, 0465ms total)
T15DC 000:795 JLINK_WriteReg(R6, 0x00000000)  returns 0x00 (0000ms, 0465ms total)
T15DC 000:795 JLINK_WriteReg(R7, 0x00000000)  returns 0x00 (0000ms, 0465ms total)
T15DC 000:795 JLINK_WriteReg(R8, 0x00000000)  returns 0x00 (0000ms, 0465ms total)
T15DC 000:795 JLINK_WriteReg(R9, 0x20000160)  returns 0x00 (0000ms, 0465ms total)
T15DC 000:795 JLINK_WriteReg(R10, 0x00000000)  returns 0x00 (0001ms, 0466ms total)
T15DC 000:796 JLINK_WriteReg(R11, 0x00000000)  returns 0x00 (0000ms, 0466ms total)
T15DC 000:796 JLINK_WriteReg(R12, 0x00000000)  returns 0x00 (0000ms, 0466ms total)
T15DC 000:796 JLINK_WriteReg(R13 (SP), 0x20000800)  returns 0x00 (0000ms, 0466ms total)
T15DC 000:796 JLINK_WriteReg(R14, 0x20000001)  returns 0x00 (0000ms, 0466ms total)
T15DC 000:796 JLINK_WriteReg(R15 (PC), 0x20000020)  returns 0x00 (0000ms, 0466ms total)
T15DC 000:796 JLINK_WriteReg(XPSR, 0x01000000)  returns 0x00 (0000ms, 0466ms total)
T15DC 000:796 JLINK_WriteReg(MSP, 0x20000800)  returns 0x00 (0000ms, 0466ms total)
T15DC 000:796 JLINK_WriteReg(PSP, 0x20000800)  returns 0x00 (0000ms, 0466ms total)
T15DC 000:796 JLINK_WriteReg(CFBP, 0x00000000)  returns 0x00 (0000ms, 0466ms total)
T15DC 000:796 JLINK_SetBPEx(Addr = 0x20000000, Type = 0xFFFFFFF2)  returns 0x00000006 (0000ms, 0466ms total)
T15DC 000:796 JLINK_Go() (0003ms, 0469ms total)
T15DC 000:799 JLINK_IsHalted() -- CPU_ReadMem(2 bytes @ 0x20000000)  returns TRUE (0006ms, 0475ms total)
T15DC 000:805 JLINK_ReadReg(R15 (PC))  returns 0x20000000 (0000ms, 0469ms total)
T15DC 000:805 JLINK_ClrBPEx(BPHandle = 0x00000006)  returns 0x00 (0000ms, 0469ms total)
T15DC 000:805 JLINK_ReadReg(R0)  returns 0x00000001 (0000ms, 0469ms total)
T15DC 000:805 JLINK_WriteReg(R0, 0x08001000)  returns 0x00 (0000ms, 0469ms total)
T15DC 000:805 JLINK_WriteReg(R1, 0x00000800)  returns 0x00 (0000ms, 0469ms total)
T15DC 000:805 JLINK_WriteReg(R2, 0x000000FF)  returns 0x00 (0001ms, 0470ms total)
T15DC 000:806 JLINK_WriteReg(R3, 0x00000000)  returns 0x00 (0000ms, 0470ms total)
T15DC 000:806 JLINK_WriteReg(R4, 0x00000000)  returns 0x00 (0000ms, 0470ms total)
T15DC 000:806 JLINK_WriteReg(R5, 0x00000000)  returns 0x00 (0000ms, 0470ms total)
T15DC 000:806 JLINK_WriteReg(R6, 0x00000000)  returns 0x00 (0000ms, 0470ms total)
T15DC 000:806 JLINK_WriteReg(R7, 0x00000000)  returns 0x00 (0000ms, 0470ms total)
T15DC 000:806 JLINK_WriteReg(R8, 0x00000000)  returns 0x00 (0000ms, 0470ms total)
T15DC 000:806 JLINK_WriteReg(R9, 0x20000160)  returns 0x00 (0000ms, 0470ms total)
T15DC 000:806 JLINK_WriteReg(R10, 0x00000000)  returns 0x00 (0000ms, 0470ms total)
T15DC 000:806 JLINK_WriteReg(R11, 0x00000000)  returns 0x00 (0000ms, 0470ms total)
T15DC 000:806 JLINK_WriteReg(R12, 0x00000000)  returns 0x00 (0000ms, 0470ms total)
T15DC 000:806 JLINK_WriteReg(R13 (SP), 0x20000800)  returns 0x00 (0000ms, 0470ms total)
T15DC 000:806 JLINK_WriteReg(R14, 0x20000001)  returns 0x00 (0000ms, 0470ms total)
T15DC 000:806 JLINK_WriteReg(R15 (PC), 0x200000B6)  returns 0x00 (0000ms, 0470ms total)
T15DC 000:806 JLINK_WriteReg(XPSR, 0x01000000)  returns 0x00 (0000ms, 0470ms total)
T15DC 000:806 JLINK_WriteReg(MSP, 0x20000800)  returns 0x00 (0000ms, 0470ms total)
T15DC 000:807 JLINK_WriteReg(PSP, 0x20000800)  returns 0x00 (0000ms, 0471ms total)
T15DC 000:807 JLINK_WriteReg(CFBP, 0x00000000)  returns 0x00 (0000ms, 0471ms total)
T15DC 000:807 JLINK_SetBPEx(Addr = 0x20000000, Type = 0xFFFFFFF2)  returns 0x00000007 (0000ms, 0471ms total)
T15DC 000:807 JLINK_Go() (0002ms, 0473ms total)
T15DC 000:809 JLINK_IsHalted()  returns FALSE (0001ms, 0474ms total)
T15DC 000:821 JLINK_IsHalted()  returns FALSE (0001ms, 0474ms total)
T15DC 000:823 JLINK_IsHalted()  returns FALSE (0001ms, 0474ms total)
T15DC 000:825 JLINK_IsHalted()  returns FALSE (0001ms, 0474ms total)
T15DC 000:827 JLINK_IsHalted()  returns FALSE (0001ms, 0474ms total)
T15DC 000:829 JLINK_IsHalted()  returns FALSE (0001ms, 0474ms total)
T15DC 000:831 JLINK_IsHalted() -- CPU_ReadMem(2 bytes @ 0x20000000)  returns TRUE (0005ms, 0478ms total)
T15DC 000:836 JLINK_ReadReg(R15 (PC))  returns 0x20000000 (0000ms, 0473ms total)
T15DC 000:836 JLINK_ClrBPEx(BPHandle = 0x00000007)  returns 0x00 (0001ms, 0474ms total)
T15DC 000:837 JLINK_ReadReg(R0)  returns 0x00000000 (0000ms, 0474ms total)
T15DC 000:837 JLINK_WriteReg(R0, 0x08001800)  returns 0x00 (0000ms, 0474ms total)
T15DC 000:837 JLINK_WriteReg(R1, 0x00000800)  returns 0x00 (0000ms, 0474ms total)
T15DC 000:837 JLINK_WriteReg(R2, 0x000000FF)  returns 0x00 (0000ms, 0474ms total)
T15DC 000:837 JLINK_WriteReg(R3, 0x00000000)  returns 0x00 (0000ms, 0474ms total)
T15DC 000:837 JLINK_WriteReg(R4, 0x00000000)  returns 0x00 (0000ms, 0474ms total)
T15DC 000:837 JLINK_WriteReg(R5, 0x00000000)  returns 0x00 (0000ms, 0474ms total)
T15DC 000:837 JLINK_WriteReg(R6, 0x00000000)  returns 0x00 (0000ms, 0474ms total)
T15DC 000:837 JLINK_WriteReg(R7, 0x00000000)  returns 0x00 (0000ms, 0474ms total)
T15DC 000:837 JLINK_WriteReg(R8, 0x00000000)  returns 0x00 (0000ms, 0474ms total)
T15DC 000:837 JLINK_WriteReg(R9, 0x20000160)  returns 0x00 (0000ms, 0474ms total)
T15DC 000:837 JLINK_WriteReg(R10, 0x00000000)  returns 0x00 (0000ms, 0474ms total)
T15DC 000:837 JLINK_WriteReg(R11, 0x00000000)  returns 0x00 (0000ms, 0474ms total)
T15DC 000:837 JLINK_WriteReg(R12, 0x00000000)  returns 0x00 (0001ms, 0475ms total)
T15DC 000:838 JLINK_WriteReg(R13 (SP), 0x20000800)  returns 0x00 (0000ms, 0475ms total)
T15DC 000:838 JLINK_WriteReg(R14, 0x20000001)  returns 0x00 (0000ms, 0475ms total)
T15DC 000:838 JLINK_WriteReg(R15 (PC), 0x20000020)  returns 0x00 (0000ms, 0475ms total)
T15DC 000:838 JLINK_WriteReg(XPSR, 0x01000000)  returns 0x00 (0000ms, 0475ms total)
T15DC 000:838 JLINK_WriteReg(MSP, 0x20000800)  returns 0x00 (0000ms, 0475ms total)
T15DC 000:838 JLINK_WriteReg(PSP, 0x20000800)  returns 0x00 (0000ms, 0475ms total)
T15DC 000:838 JLINK_WriteReg(CFBP, 0x00000000)  returns 0x00 (0000ms, 0475ms total)
T15DC 000:838 JLINK_SetBPEx(Addr = 0x20000000, Type = 0xFFFFFFF2)  returns 0x00000008 (0000ms, 0475ms total)
T15DC 000:838 JLINK_Go() (0003ms, 0478ms total)
T15DC 000:841 JLINK_IsHalted() -- CPU_ReadMem(2 bytes @ 0x20000000)  returns TRUE (0005ms, 0483ms total)
T15DC 000:846 JLINK_ReadReg(R15 (PC))  returns 0x20000000 (0000ms, 0478ms total)
T15DC 000:846 JLINK_ClrBPEx(BPHandle = 0x00000008)  returns 0x00 (0000ms, 0478ms total)
T15DC 000:846 JLINK_ReadReg(R0)  returns 0x00000001 (0000ms, 0478ms total)
T15DC 000:846 JLINK_WriteReg(R0, 0x08001800)  returns 0x00 (0000ms, 0478ms total)
T15DC 000:846 JLINK_WriteReg(R1, 0x00000800)  returns 0x00 (0000ms, 0478ms total)
T15DC 000:846 JLINK_WriteReg(R2, 0x000000FF)  returns 0x00 (0000ms, 0478ms total)
T15DC 000:846 JLINK_WriteReg(R3, 0x00000000)  returns 0x00 (0000ms, 0478ms total)
T15DC 000:846 JLINK_WriteReg(R4, 0x00000000)  returns 0x00 (0000ms, 0478ms total)
T15DC 000:846 JLINK_WriteReg(R5, 0x00000000)  returns 0x00 (0000ms, 0478ms total)
T15DC 000:846 JLINK_WriteReg(R6, 0x00000000)  returns 0x00 (0001ms, 0479ms total)
T15DC 000:847 JLINK_WriteReg(R7, 0x00000000)  returns 0x00 (0000ms, 0479ms total)
T15DC 000:847 JLINK_WriteReg(R8, 0x00000000)  returns 0x00 (0000ms, 0479ms total)
T15DC 000:847 JLINK_WriteReg(R9, 0x20000160)  returns 0x00 (0000ms, 0479ms total)
T15DC 000:847 JLINK_WriteReg(R10, 0x00000000)  returns 0x00 (0000ms, 0479ms total)
T15DC 000:847 JLINK_WriteReg(R11, 0x00000000)  returns 0x00 (0000ms, 0479ms total)
T15DC 000:847 JLINK_WriteReg(R12, 0x00000000)  returns 0x00 (0000ms, 0479ms total)
T15DC 000:847 JLINK_WriteReg(R13 (SP), 0x20000800)  returns 0x00 (0000ms, 0479ms total)
T15DC 000:847 JLINK_WriteReg(R14, 0x20000001)  returns 0x00 (0000ms, 0479ms total)
T15DC 000:847 JLINK_WriteReg(R15 (PC), 0x200000B6)  returns 0x00 (0000ms, 0479ms total)
T15DC 000:847 JLINK_WriteReg(XPSR, 0x01000000)  returns 0x00 (0000ms, 0479ms total)
T15DC 000:847 JLINK_WriteReg(MSP, 0x20000800)  returns 0x00 (0000ms, 0479ms total)
T15DC 000:847 JLINK_WriteReg(PSP, 0x20000800)  returns 0x00 (0000ms, 0479ms total)
T15DC 000:847 JLINK_WriteReg(CFBP, 0x00000000)  returns 0x00 (0000ms, 0479ms total)
T15DC 000:847 JLINK_SetBPEx(Addr = 0x20000000, Type = 0xFFFFFFF2)  returns 0x00000009 (0000ms, 0479ms total)
T15DC 000:847 JLINK_Go() (0003ms, 0482ms total)
T15DC 000:850 JLINK_IsHalted()  returns FALSE (0001ms, 0483ms total)
T15DC 000:852 JLINK_IsHalted()  returns FALSE (0001ms, 0483ms total)
T15DC 000:854 JLINK_IsHalted()  returns FALSE (0001ms, 0483ms total)
T15DC 000:856 JLINK_IsHalted()  returns FALSE (0001ms, 0483ms total)
T15DC 000:858 JLINK_IsHalted()  returns FALSE (0001ms, 0483ms total)
T15DC 000:860 JLINK_IsHalted()  returns FALSE (0001ms, 0483ms total)
T15DC 000:862 JLINK_IsHalted()  returns FALSE (0001ms, 0483ms total)
T15DC 000:864 JLINK_IsHalted()  returns FALSE (0001ms, 0483ms total)
T15DC 000:866 JLINK_IsHalted()  returns FALSE (0001ms, 0483ms total)
T15DC 000:868 JLINK_IsHalted()  returns FALSE (0001ms, 0483ms total)
T15DC 000:870 JLINK_IsHalted()  returns FALSE (0001ms, 0483ms total)
T15DC 000:872 JLINK_IsHalted() -- CPU_ReadMem(2 bytes @ 0x20000000)  returns TRUE (0005ms, 0487ms total)
T15DC 000:877 JLINK_ReadReg(R15 (PC))  returns 0x20000000 (0000ms, 0482ms total)
T15DC 000:877 JLINK_ClrBPEx(BPHandle = 0x00000009)  returns 0x00 (0001ms, 0483ms total)
T15DC 000:878 JLINK_ReadReg(R0)  returns 0x00000000 (0000ms, 0483ms total)
T15DC 000:878 JLINK_WriteReg(R0, 0x08002000)  returns 0x00 (0000ms, 0483ms total)
T15DC 000:878 JLINK_WriteReg(R1, 0x00000800)  returns 0x00 (0000ms, 0483ms total)
T15DC 000:878 JLINK_WriteReg(R2, 0x000000FF)  returns 0x00 (0000ms, 0483ms total)
T15DC 000:878 JLINK_WriteReg(R3, 0x00000000)  returns 0x00 (0000ms, 0483ms total)
T15DC 000:878 JLINK_WriteReg(R4, 0x00000000)  returns 0x00 (0000ms, 0483ms total)
T15DC 000:878 JLINK_WriteReg(R5, 0x00000000)  returns 0x00 (0000ms, 0483ms total)
T15DC 000:879 JLINK_WriteReg(R6, 0x00000000)  returns 0x00 (0000ms, 0484ms total)
T15DC 000:879 JLINK_WriteReg(R7, 0x00000000)  returns 0x00 (0000ms, 0484ms total)
T15DC 000:879 JLINK_WriteReg(R8, 0x00000000)  returns 0x00 (0000ms, 0484ms total)
T15DC 000:879 JLINK_WriteReg(R9, 0x20000160)  returns 0x00 (0000ms, 0484ms total)
T15DC 000:879 JLINK_WriteReg(R10, 0x00000000)  returns 0x00 (0000ms, 0484ms total)
T15DC 000:879 JLINK_WriteReg(R11, 0x00000000)  returns 0x00 (0000ms, 0484ms total)
T15DC 000:879 JLINK_WriteReg(R12, 0x00000000)  returns 0x00 (0000ms, 0484ms total)
T15DC 000:879 JLINK_WriteReg(R13 (SP), 0x20000800)  returns 0x00 (0000ms, 0484ms total)
T15DC 000:879 JLINK_WriteReg(R14, 0x20000001)  returns 0x00 (0000ms, 0484ms total)
T15DC 000:879 JLINK_WriteReg(R15 (PC), 0x20000020)  returns 0x00 (0000ms, 0484ms total)
T15DC 000:879 JLINK_WriteReg(XPSR, 0x01000000)  returns 0x00 (0000ms, 0484ms total)
T15DC 000:880 JLINK_WriteReg(MSP, 0x20000800)  returns 0x00 (0000ms, 0485ms total)
T15DC 000:880 JLINK_WriteReg(PSP, 0x20000800)  returns 0x00 (0000ms, 0485ms total)
T15DC 000:880 JLINK_WriteReg(CFBP, 0x00000000)  returns 0x00 (0000ms, 0485ms total)
T15DC 000:880 JLINK_SetBPEx(Addr = 0x20000000, Type = 0xFFFFFFF2)  returns 0x0000000A (0000ms, 0485ms total)
T15DC 000:880 JLINK_Go() (0003ms, 0488ms total)
T15DC 000:883 JLINK_IsHalted() -- CPU_ReadMem(2 bytes @ 0x20000000)  returns TRUE (0006ms, 0494ms total)
T15DC 000:889 JLINK_ReadReg(R15 (PC))  returns 0x20000000 (0000ms, 0488ms total)
T15DC 000:889 JLINK_ClrBPEx(BPHandle = 0x0000000A)  returns 0x00 (0000ms, 0488ms total)
T15DC 000:889 JLINK_ReadReg(R0)  returns 0x00000001 (0000ms, 0488ms total)
T15DC 000:889 JLINK_WriteReg(R0, 0x08002000)  returns 0x00 (0000ms, 0488ms total)
T15DC 000:889 JLINK_WriteReg(R1, 0x00000800)  returns 0x00 (0000ms, 0488ms total)
T15DC 000:889 JLINK_WriteReg(R2, 0x000000FF)  returns 0x00 (0000ms, 0488ms total)
T15DC 000:889 JLINK_WriteReg(R3, 0x00000000)  returns 0x00 (0000ms, 0488ms total)
T15DC 000:890 JLINK_WriteReg(R4, 0x00000000)  returns 0x00 (0000ms, 0489ms total)
T15DC 000:890 JLINK_WriteReg(R5, 0x00000000)  returns 0x00 (0000ms, 0489ms total)
T15DC 000:890 JLINK_WriteReg(R6, 0x00000000)  returns 0x00 (0000ms, 0489ms total)
T15DC 000:890 JLINK_WriteReg(R7, 0x00000000)  returns 0x00 (0000ms, 0489ms total)
T15DC 000:890 JLINK_WriteReg(R8, 0x00000000)  returns 0x00 (0000ms, 0489ms total)
T15DC 000:890 JLINK_WriteReg(R9, 0x20000160)  returns 0x00 (0000ms, 0489ms total)
T15DC 000:890 JLINK_WriteReg(R10, 0x00000000)  returns 0x00 (0000ms, 0489ms total)
T15DC 000:890 JLINK_WriteReg(R11, 0x00000000)  returns 0x00 (0000ms, 0489ms total)
T15DC 000:890 JLINK_WriteReg(R12, 0x00000000)  returns 0x00 (0000ms, 0489ms total)
T15DC 000:890 JLINK_WriteReg(R13 (SP), 0x20000800)  returns 0x00 (0000ms, 0489ms total)
T15DC 000:890 JLINK_WriteReg(R14, 0x20000001)  returns 0x00 (0000ms, 0489ms total)
T15DC 000:891 JLINK_WriteReg(R15 (PC), 0x200000B6)  returns 0x00 (0000ms, 0490ms total)
T15DC 000:891 JLINK_WriteReg(XPSR, 0x01000000)  returns 0x00 (0000ms, 0490ms total)
T15DC 000:891 JLINK_WriteReg(MSP, 0x20000800)  returns 0x00 (0000ms, 0490ms total)
T15DC 000:891 JLINK_WriteReg(PSP, 0x20000800)  returns 0x00 (0000ms, 0490ms total)
T15DC 000:891 JLINK_WriteReg(CFBP, 0x00000000)  returns 0x00 (0000ms, 0490ms total)
T15DC 000:891 JLINK_SetBPEx(Addr = 0x20000000, Type = 0xFFFFFFF2)  returns 0x0000000B (0000ms, 0490ms total)
T15DC 000:891 JLINK_Go() (0003ms, 0493ms total)
T15DC 000:894 JLINK_IsHalted()  returns FALSE (0001ms, 0494ms total)
T15DC 000:916 JLINK_IsHalted() -- CPU_ReadMem(2 bytes @ 0x20000000)  returns TRUE (0006ms, 0499ms total)
T15DC 000:922 JLINK_ReadReg(R15 (PC))  returns 0x20000000 (0001ms, 0494ms total)
T15DC 000:923 JLINK_ClrBPEx(BPHandle = 0x0000000B)  returns 0x00 (0000ms, 0494ms total)
T15DC 000:923 JLINK_ReadReg(R0)  returns 0x00000000 (0000ms, 0494ms total)
T15DC 000:923 JLINK_WriteReg(R0, 0x08002800)  returns 0x00 (0000ms, 0494ms total)
T15DC 000:923 JLINK_WriteReg(R1, 0x00000800)  returns 0x00 (0000ms, 0494ms total)
T15DC 000:923 JLINK_WriteReg(R2, 0x000000FF)  returns 0x00 (0000ms, 0494ms total)
T15DC 000:923 JLINK_WriteReg(R3, 0x00000000)  returns 0x00 (0000ms, 0494ms total)
T15DC 000:923 JLINK_WriteReg(R4, 0x00000000)  returns 0x00 (0000ms, 0494ms total)
T15DC 000:923 JLINK_WriteReg(R5, 0x00000000)  returns 0x00 (0000ms, 0494ms total)
T15DC 000:923 JLINK_WriteReg(R6, 0x00000000)  returns 0x00 (0001ms, 0495ms total)
T15DC 000:924 JLINK_WriteReg(R7, 0x00000000)  returns 0x00 (0000ms, 0495ms total)
T15DC 000:924 JLINK_WriteReg(R8, 0x00000000)  returns 0x00 (0000ms, 0495ms total)
T15DC 000:924 JLINK_WriteReg(R9, 0x20000160)  returns 0x00 (0000ms, 0495ms total)
T15DC 000:924 JLINK_WriteReg(R10, 0x00000000)  returns 0x00 (0000ms, 0495ms total)
T15DC 000:924 JLINK_WriteReg(R11, 0x00000000)  returns 0x00 (0000ms, 0495ms total)
T15DC 000:924 JLINK_WriteReg(R12, 0x00000000)  returns 0x00 (0000ms, 0495ms total)
T15DC 000:924 JLINK_WriteReg(R13 (SP), 0x20000800)  returns 0x00 (0000ms, 0495ms total)
T15DC 000:924 JLINK_WriteReg(R14, 0x20000001)  returns 0x00 (0000ms, 0495ms total)
T15DC 000:924 JLINK_WriteReg(R15 (PC), 0x20000020)  returns 0x00 (0000ms, 0495ms total)
T15DC 000:924 JLINK_WriteReg(XPSR, 0x01000000)  returns 0x00 (0000ms, 0495ms total)
T15DC 000:924 JLINK_WriteReg(MSP, 0x20000800)  returns 0x00 (0001ms, 0496ms total)
T15DC 000:925 JLINK_WriteReg(PSP, 0x20000800)  returns 0x00 (0000ms, 0496ms total)
T15DC 000:925 JLINK_WriteReg(CFBP, 0x00000000)  returns 0x00 (0000ms, 0496ms total)
T15DC 000:925 JLINK_SetBPEx(Addr = 0x20000000, Type = 0xFFFFFFF2)  returns 0x0000000C (0000ms, 0496ms total)
T15DC 000:925 JLINK_Go() (0003ms, 0499ms total)
T15DC 000:928 JLINK_IsHalted() -- CPU_ReadMem(2 bytes @ 0x20000000)  returns TRUE (0005ms, 0504ms total)
T15DC 000:933 JLINK_ReadReg(R15 (PC))  returns 0x20000000 (0000ms, 0499ms total)
T15DC 000:933 JLINK_ClrBPEx(BPHandle = 0x0000000C)  returns 0x00 (0000ms, 0499ms total)
T15DC 000:933 JLINK_ReadReg(R0)  returns 0x00000001 (0000ms, 0499ms total)
T15DC 000:933 JLINK_WriteReg(R0, 0x08002800)  returns 0x00 (0000ms, 0499ms total)
T15DC 000:933 JLINK_WriteReg(R1, 0x00000800)  returns 0x00 (0000ms, 0499ms total)
T15DC 000:933 JLINK_WriteReg(R2, 0x000000FF)  returns 0x00 (0000ms, 0499ms total)
T15DC 000:933 JLINK_WriteReg(R3, 0x00000000)  returns 0x00 (0000ms, 0499ms total)
T15DC 000:933 JLINK_WriteReg(R4, 0x00000000)  returns 0x00 (0001ms, 0500ms total)
T15DC 000:934 JLINK_WriteReg(R5, 0x00000000)  returns 0x00 (0000ms, 0500ms total)
T15DC 000:934 JLINK_WriteReg(R6, 0x00000000)  returns 0x00 (0000ms, 0500ms total)
T15DC 000:934 JLINK_WriteReg(R7, 0x00000000)  returns 0x00 (0000ms, 0500ms total)
T15DC 000:934 JLINK_WriteReg(R8, 0x00000000)  returns 0x00 (0000ms, 0500ms total)
T15DC 000:934 JLINK_WriteReg(R9, 0x20000160)  returns 0x00 (0000ms, 0500ms total)
T15DC 000:934 JLINK_WriteReg(R10, 0x00000000)  returns 0x00 (0000ms, 0500ms total)
T15DC 000:934 JLINK_WriteReg(R11, 0x00000000)  returns 0x00 (0000ms, 0500ms total)
T15DC 000:934 JLINK_WriteReg(R12, 0x00000000)  returns 0x00 (0000ms, 0500ms total)
T15DC 000:934 JLINK_WriteReg(R13 (SP), 0x20000800)  returns 0x00 (0000ms, 0500ms total)
T15DC 000:934 JLINK_WriteReg(R14, 0x20000001)  returns 0x00 (0000ms, 0500ms total)
T15DC 000:934 JLINK_WriteReg(R15 (PC), 0x200000B6)  returns 0x00 (0001ms, 0501ms total)
T15DC 000:935 JLINK_WriteReg(XPSR, 0x01000000)  returns 0x00 (0000ms, 0501ms total)
T15DC 000:935 JLINK_WriteReg(MSP, 0x20000800)  returns 0x00 (0000ms, 0501ms total)
T15DC 000:935 JLINK_WriteReg(PSP, 0x20000800)  returns 0x00 (0000ms, 0501ms total)
T15DC 000:935 JLINK_WriteReg(CFBP, 0x00000000)  returns 0x00 (0000ms, 0501ms total)
T15DC 000:935 JLINK_SetBPEx(Addr = 0x20000000, Type = 0xFFFFFFF2)  returns 0x0000000D (0000ms, 0501ms total)
T15DC 000:935 JLINK_Go() (0003ms, 0504ms total)
T15DC 000:938 JLINK_IsHalted()  returns FALSE (0001ms, 0505ms total)
T15DC 000:943 JLINK_IsHalted()  returns FALSE (0001ms, 0505ms total)
T15DC 000:945 JLINK_IsHalted()  returns FALSE (0001ms, 0505ms total)
T15DC 000:947 JLINK_IsHalted()  returns FALSE (0001ms, 0505ms total)
T15DC 000:949 JLINK_IsHalted()  returns FALSE (0001ms, 0505ms total)
T15DC 000:951 JLINK_IsHalted()  returns FALSE (0001ms, 0505ms total)
T15DC 000:953 JLINK_IsHalted()  returns FALSE (0001ms, 0505ms total)
T15DC 000:955 JLINK_IsHalted()  returns FALSE (0001ms, 0505ms total)
T15DC 000:957 JLINK_IsHalted()  returns FALSE (0001ms, 0505ms total)
T15DC 000:959 JLINK_IsHalted()  returns FALSE (0001ms, 0505ms total)
T15DC 000:961 JLINK_IsHalted() -- CPU_ReadMem(2 bytes @ 0x20000000)  returns TRUE (0005ms, 0509ms total)
T15DC 000:966 JLINK_ReadReg(R15 (PC))  returns 0x20000000 (0000ms, 0504ms total)
T15DC 000:966 JLINK_ClrBPEx(BPHandle = 0x0000000D)  returns 0x00 (0001ms, 0505ms total)
T15DC 000:967 JLINK_ReadReg(R0)  returns 0x00000000 (0000ms, 0505ms total)
T15DC 000:967 JLINK_WriteReg(R0, 0x08003000)  returns 0x00 (0000ms, 0505ms total)
T15DC 000:967 JLINK_WriteReg(R1, 0x00000800)  returns 0x00 (0000ms, 0505ms total)
T15DC 000:967 JLINK_WriteReg(R2, 0x000000FF)  returns 0x00 (0000ms, 0505ms total)
T15DC 000:967 JLINK_WriteReg(R3, 0x00000000)  returns 0x00 (0000ms, 0505ms total)
T15DC 000:967 JLINK_WriteReg(R4, 0x00000000)  returns 0x00 (0000ms, 0505ms total)
T15DC 000:967 JLINK_WriteReg(R5, 0x00000000)  returns 0x00 (0000ms, 0505ms total)
T15DC 000:967 JLINK_WriteReg(R6, 0x00000000)  returns 0x00 (0000ms, 0505ms total)
T15DC 000:967 JLINK_WriteReg(R7, 0x00000000)  returns 0x00 (0001ms, 0506ms total)
T15DC 000:968 JLINK_WriteReg(R8, 0x00000000)  returns 0x00 (0000ms, 0506ms total)
T15DC 000:968 JLINK_WriteReg(R9, 0x20000160)  returns 0x00 (0000ms, 0506ms total)
T15DC 000:968 JLINK_WriteReg(R10, 0x00000000)  returns 0x00 (0000ms, 0506ms total)
T15DC 000:968 JLINK_WriteReg(R11, 0x00000000)  returns 0x00 (0000ms, 0506ms total)
T15DC 000:968 JLINK_WriteReg(R12, 0x00000000)  returns 0x00 (0000ms, 0506ms total)
T15DC 000:968 JLINK_WriteReg(R13 (SP), 0x20000800)  returns 0x00 (0000ms, 0506ms total)
T15DC 000:968 JLINK_WriteReg(R14, 0x20000001)  returns 0x00 (0000ms, 0506ms total)
T15DC 000:968 JLINK_WriteReg(R15 (PC), 0x20000020)  returns 0x00 (0000ms, 0506ms total)
T15DC 000:968 JLINK_WriteReg(XPSR, 0x01000000)  returns 0x00 (0000ms, 0506ms total)
T15DC 000:968 JLINK_WriteReg(MSP, 0x20000800)  returns 0x00 (0000ms, 0506ms total)
T15DC 000:968 JLINK_WriteReg(PSP, 0x20000800)  returns 0x00 (0001ms, 0507ms total)
T15DC 000:969 JLINK_WriteReg(CFBP, 0x00000000)  returns 0x00 (0000ms, 0507ms total)
T15DC 000:969 JLINK_SetBPEx(Addr = 0x20000000, Type = 0xFFFFFFF2)  returns 0x0000000E (0000ms, 0507ms total)
T15DC 000:969 JLINK_Go() (0002ms, 0509ms total)
T15DC 000:971 JLINK_IsHalted()  returns FALSE (0001ms, 0510ms total)
T15DC 000:973 JLINK_IsHalted()  returns FALSE (0000ms, 0509ms total)
T15DC 000:974 JLINK_IsHalted()  returns FALSE (0000ms, 0509ms total)
T15DC 000:975 JLINK_IsHalted() -- CPU_ReadMem(2 bytes @ 0x20000000)  returns TRUE (0006ms, 0515ms total)
T15DC 000:981 JLINK_ReadReg(R15 (PC))  returns 0x20000000 (0000ms, 0509ms total)
T15DC 000:981 JLINK_ClrBPEx(BPHandle = 0x0000000E)  returns 0x00 (0000ms, 0509ms total)
T15DC 000:981 JLINK_ReadReg(R0)  returns 0x00000001 (0000ms, 0509ms total)
T15DC 000:981 JLINK_WriteReg(R0, 0x08003000)  returns 0x00 (0000ms, 0509ms total)
T15DC 000:981 JLINK_WriteReg(R1, 0x00000800)  returns 0x00 (0000ms, 0509ms total)
T15DC 000:981 JLINK_WriteReg(R2, 0x000000FF)  returns 0x00 (0000ms, 0509ms total)
T15DC 000:981 JLINK_WriteReg(R3, 0x00000000)  returns 0x00 (0000ms, 0509ms total)
T15DC 000:981 JLINK_WriteReg(R4, 0x00000000)  returns 0x00 (0000ms, 0509ms total)
T15DC 000:981 JLINK_WriteReg(R5, 0x00000000)  returns 0x00 (0000ms, 0509ms total)
T15DC 000:981 JLINK_WriteReg(R6, 0x00000000)  returns 0x00 (0000ms, 0509ms total)
T15DC 000:982 JLINK_WriteReg(R7, 0x00000000)  returns 0x00 (0000ms, 0510ms total)
T15DC 000:982 JLINK_WriteReg(R8, 0x00000000)  returns 0x00 (0000ms, 0510ms total)
T15DC 000:982 JLINK_WriteReg(R9, 0x20000160)  returns 0x00 (0000ms, 0510ms total)
T15DC 000:982 JLINK_WriteReg(R10, 0x00000000)  returns 0x00 (0000ms, 0510ms total)
T15DC 000:982 JLINK_WriteReg(R11, 0x00000000)  returns 0x00 (0000ms, 0510ms total)
T15DC 000:982 JLINK_WriteReg(R12, 0x00000000)  returns 0x00 (0000ms, 0510ms total)
T15DC 000:982 JLINK_WriteReg(R13 (SP), 0x20000800)  returns 0x00 (0000ms, 0510ms total)
T15DC 000:982 JLINK_WriteReg(R14, 0x20000001)  returns 0x00 (0000ms, 0510ms total)
T15DC 000:982 JLINK_WriteReg(R15 (PC), 0x200000B6)  returns 0x00 (0000ms, 0510ms total)
T15DC 000:982 JLINK_WriteReg(XPSR, 0x01000000)  returns 0x00 (0000ms, 0510ms total)
T15DC 000:983 JLINK_WriteReg(MSP, 0x20000800)  returns 0x00 (0000ms, 0510ms total)
T15DC 000:983 JLINK_WriteReg(PSP, 0x20000800)  returns 0x00 (0000ms, 0510ms total)
T15DC 000:983 JLINK_WriteReg(CFBP, 0x00000000)  returns 0x00 (0000ms, 0510ms total)
T15DC 000:983 JLINK_SetBPEx(Addr = 0x20000000, Type = 0xFFFFFFF2)  returns 0x0000000F (0000ms, 0510ms total)
T15DC 000:983 JLINK_Go() (0003ms, 0513ms total)
T15DC 000:986 JLINK_IsHalted()  returns FALSE (0001ms, 0514ms total)
T15DC 000:991 JLINK_IsHalted()  returns FALSE (0001ms, 0514ms total)
T15DC 000:993 JLINK_IsHalted()  returns FALSE (0001ms, 0514ms total)
T15DC 000:995 JLINK_IsHalted()  returns FALSE (0001ms, 0514ms total)
T15DC 000:997 JLINK_IsHalted()  returns FALSE (0001ms, 0514ms total)
T15DC 001:012 JLINK_IsHalted() -- CPU_ReadMem(2 bytes @ 0x20000000)  returns TRUE (0006ms, 0519ms total)
T15DC 001:018 JLINK_ReadReg(R15 (PC))  returns 0x20000000 (0001ms, 0514ms total)
T15DC 001:019 JLINK_ClrBPEx(BPHandle = 0x0000000F)  returns 0x00 (0000ms, 0514ms total)
T15DC 001:019 JLINK_ReadReg(R0)  returns 0x00000000 (0000ms, 0514ms total)
T15DC 001:019 JLINK_WriteReg(R0, 0x08003800)  returns 0x00 (0000ms, 0514ms total)
T15DC 001:019 JLINK_WriteReg(R1, 0x00000800)  returns 0x00 (0000ms, 0514ms total)
T15DC 001:019 JLINK_WriteReg(R2, 0x000000FF)  returns 0x00 (0000ms, 0514ms total)
T15DC 001:019 JLINK_WriteReg(R3, 0x00000000)  returns 0x00 (0000ms, 0514ms total)
T15DC 001:019 JLINK_WriteReg(R4, 0x00000000)  returns 0x00 (0000ms, 0514ms total)
T15DC 001:019 JLINK_WriteReg(R5, 0x00000000)  returns 0x00 (0000ms, 0514ms total)
T15DC 001:019 JLINK_WriteReg(R6, 0x00000000)  returns 0x00 (0000ms, 0514ms total)
T15DC 001:020 JLINK_WriteReg(R7, 0x00000000)  returns 0x00 (0000ms, 0515ms total)
T15DC 001:020 JLINK_WriteReg(R8, 0x00000000)  returns 0x00 (0000ms, 0515ms total)
T15DC 001:020 JLINK_WriteReg(R9, 0x20000160)  returns 0x00 (0000ms, 0515ms total)
T15DC 001:020 JLINK_WriteReg(R10, 0x00000000)  returns 0x00 (0000ms, 0515ms total)
T15DC 001:020 JLINK_WriteReg(R11, 0x00000000)  returns 0x00 (0000ms, 0515ms total)
T15DC 001:020 JLINK_WriteReg(R12, 0x00000000)  returns 0x00 (0000ms, 0515ms total)
T15DC 001:020 JLINK_WriteReg(R13 (SP), 0x20000800)  returns 0x00 (0000ms, 0515ms total)
T15DC 001:020 JLINK_WriteReg(R14, 0x20000001)  returns 0x00 (0000ms, 0515ms total)
T15DC 001:020 JLINK_WriteReg(R15 (PC), 0x20000020)  returns 0x00 (0000ms, 0515ms total)
T15DC 001:020 JLINK_WriteReg(XPSR, 0x01000000)  returns 0x00 (0000ms, 0515ms total)
T15DC 001:021 JLINK_WriteReg(MSP, 0x20000800)  returns 0x00 (0000ms, 0516ms total)
T15DC 001:021 JLINK_WriteReg(PSP, 0x20000800)  returns 0x00 (0000ms, 0516ms total)
T15DC 001:021 JLINK_WriteReg(CFBP, 0x00000000)  returns 0x00 (0000ms, 0516ms total)
T15DC 001:021 JLINK_SetBPEx(Addr = 0x20000000, Type = 0xFFFFFFF2)  returns 0x00000010 (0000ms, 0516ms total)
T15DC 001:021 JLINK_Go() (0004ms, 0520ms total)
T15DC 001:025 JLINK_IsHalted() -- CPU_ReadMem(2 bytes @ 0x20000000)  returns TRUE (0005ms, 0525ms total)
T15DC 001:030 JLINK_ReadReg(R15 (PC))  returns 0x20000000 (0000ms, 0520ms total)
T15DC 001:030 JLINK_ClrBPEx(BPHandle = 0x00000010)  returns 0x00 (0000ms, 0520ms total)
T15DC 001:030 JLINK_ReadReg(R0)  returns 0x00000001 (0000ms, 0520ms total)
T15DC 001:030 JLINK_WriteReg(R0, 0x08003800)  returns 0x00 (0000ms, 0520ms total)
T15DC 001:030 JLINK_WriteReg(R1, 0x00000800)  returns 0x00 (0000ms, 0520ms total)
T15DC 001:030 JLINK_WriteReg(R2, 0x000000FF)  returns 0x00 (0000ms, 0520ms total)
T15DC 001:030 JLINK_WriteReg(R3, 0x00000000)  returns 0x00 (0001ms, 0521ms total)
T15DC 001:031 JLINK_WriteReg(R4, 0x00000000)  returns 0x00 (0000ms, 0521ms total)
T15DC 001:031 JLINK_WriteReg(R5, 0x00000000)  returns 0x00 (0000ms, 0521ms total)
T15DC 001:031 JLINK_WriteReg(R6, 0x00000000)  returns 0x00 (0000ms, 0521ms total)
T15DC 001:031 JLINK_WriteReg(R7, 0x00000000)  returns 0x00 (0000ms, 0521ms total)
T15DC 001:031 JLINK_WriteReg(R8, 0x00000000)  returns 0x00 (0000ms, 0521ms total)
T15DC 001:031 JLINK_WriteReg(R9, 0x20000160)  returns 0x00 (0000ms, 0521ms total)
T15DC 001:031 JLINK_WriteReg(R10, 0x00000000)  returns 0x00 (0000ms, 0521ms total)
T15DC 001:031 JLINK_WriteReg(R11, 0x00000000)  returns 0x00 (0000ms, 0521ms total)
T15DC 001:031 JLINK_WriteReg(R12, 0x00000000)  returns 0x00 (0000ms, 0521ms total)
T15DC 001:031 JLINK_WriteReg(R13 (SP), 0x20000800)  returns 0x00 (0000ms, 0521ms total)
T15DC 001:032 JLINK_WriteReg(R14, 0x20000001)  returns 0x00 (0000ms, 0522ms total)
T15DC 001:032 JLINK_WriteReg(R15 (PC), 0x200000B6)  returns 0x00 (0000ms, 0522ms total)
T15DC 001:032 JLINK_WriteReg(XPSR, 0x01000000)  returns 0x00 (0000ms, 0522ms total)
T15DC 001:032 JLINK_WriteReg(MSP, 0x20000800)  returns 0x00 (0000ms, 0522ms total)
T15DC 001:032 JLINK_WriteReg(PSP, 0x20000800)  returns 0x00 (0000ms, 0522ms total)
T15DC 001:032 JLINK_WriteReg(CFBP, 0x00000000)  returns 0x00 (0000ms, 0522ms total)
T15DC 001:032 JLINK_SetBPEx(Addr = 0x20000000, Type = 0xFFFFFFF2)  returns 0x00000011 (0000ms, 0522ms total)
T15DC 001:032 JLINK_Go() (0003ms, 0525ms total)
T15DC 001:035 JLINK_IsHalted()  returns FALSE (0001ms, 0526ms total)
T15DC 001:037 JLINK_IsHalted()  returns FALSE (0001ms, 0526ms total)
T15DC 001:039 JLINK_IsHalted()  returns FALSE (0001ms, 0526ms total)
T15DC 001:041 JLINK_IsHalted()  returns FALSE (0001ms, 0526ms total)
T15DC 001:043 JLINK_IsHalted()  returns FALSE (0001ms, 0526ms total)
T15DC 001:049 JLINK_IsHalted()  returns FALSE (0001ms, 0526ms total)
T15DC 001:051 JLINK_IsHalted()  returns FALSE (0001ms, 0526ms total)
T15DC 001:053 JLINK_IsHalted()  returns FALSE (0001ms, 0526ms total)
T15DC 001:055 JLINK_IsHalted()  returns FALSE (0001ms, 0526ms total)
T15DC 001:057 JLINK_IsHalted() -- CPU_ReadMem(2 bytes @ 0x20000000)  returns TRUE (0005ms, 0530ms total)
T15DC 001:062 JLINK_ReadReg(R15 (PC))  returns 0x20000000 (0000ms, 0525ms total)
T15DC 001:062 JLINK_ClrBPEx(BPHandle = 0x00000011)  returns 0x00 (0001ms, 0526ms total)
T15DC 001:063 JLINK_ReadReg(R0)  returns 0x00000000 (0000ms, 0526ms total)
T15DC 001:063 JLINK_WriteReg(R0, 0x08004000)  returns 0x00 (0000ms, 0526ms total)
T15DC 001:063 JLINK_WriteReg(R1, 0x00000800)  returns 0x00 (0000ms, 0526ms total)
T15DC 001:063 JLINK_WriteReg(R2, 0x000000FF)  returns 0x00 (0000ms, 0526ms total)
T15DC 001:063 JLINK_WriteReg(R3, 0x00000000)  returns 0x00 (0000ms, 0526ms total)
T15DC 001:063 JLINK_WriteReg(R4, 0x00000000)  returns 0x00 (0000ms, 0526ms total)
T15DC 001:063 JLINK_WriteReg(R5, 0x00000000)  returns 0x00 (0000ms, 0526ms total)
T15DC 001:063 JLINK_WriteReg(R6, 0x00000000)  returns 0x00 (0000ms, 0526ms total)
T15DC 001:063 JLINK_WriteReg(R7, 0x00000000)  returns 0x00 (0001ms, 0527ms total)
T15DC 001:064 JLINK_WriteReg(R8, 0x00000000)  returns 0x00 (0000ms, 0527ms total)
T15DC 001:064 JLINK_WriteReg(R9, 0x20000160)  returns 0x00 (0000ms, 0527ms total)
T15DC 001:064 JLINK_WriteReg(R10, 0x00000000)  returns 0x00 (0000ms, 0527ms total)
T15DC 001:064 JLINK_WriteReg(R11, 0x00000000)  returns 0x00 (0000ms, 0527ms total)
T15DC 001:064 JLINK_WriteReg(R12, 0x00000000)  returns 0x00 (0000ms, 0527ms total)
T15DC 001:064 JLINK_WriteReg(R13 (SP), 0x20000800)  returns 0x00 (0000ms, 0527ms total)
T15DC 001:064 JLINK_WriteReg(R14, 0x20000001)  returns 0x00 (0000ms, 0527ms total)
T15DC 001:064 JLINK_WriteReg(R15 (PC), 0x20000020)  returns 0x00 (0000ms, 0527ms total)
T15DC 001:064 JLINK_WriteReg(XPSR, 0x01000000)  returns 0x00 (0001ms, 0528ms total)
T15DC 001:065 JLINK_WriteReg(MSP, 0x20000800)  returns 0x00 (0000ms, 0528ms total)
T15DC 001:065 JLINK_WriteReg(PSP, 0x20000800)  returns 0x00 (0000ms, 0528ms total)
T15DC 001:065 JLINK_WriteReg(CFBP, 0x00000000)  returns 0x00 (0000ms, 0528ms total)
T15DC 001:065 JLINK_SetBPEx(Addr = 0x20000000, Type = 0xFFFFFFF2)  returns 0x00000012 (0000ms, 0528ms total)
T15DC 001:065 JLINK_Go() (0003ms, 0531ms total)
T15DC 001:068 JLINK_IsHalted() -- CPU_ReadMem(2 bytes @ 0x20000000)  returns TRUE (0005ms, 0536ms total)
T15DC 001:073 JLINK_ReadReg(R15 (PC))  returns 0x20000000 (0000ms, 0531ms total)
T15DC 001:073 JLINK_ClrBPEx(BPHandle = 0x00000012)  returns 0x00 (0000ms, 0531ms total)
T15DC 001:073 JLINK_ReadReg(R0)  returns 0x00000001 (0000ms, 0531ms total)
T15DC 001:073 JLINK_WriteReg(R0, 0x08004000)  returns 0x00 (0000ms, 0531ms total)
T15DC 001:073 JLINK_WriteReg(R1, 0x00000800)  returns 0x00 (0000ms, 0531ms total)
T15DC 001:073 JLINK_WriteReg(R2, 0x000000FF)  returns 0x00 (0001ms, 0532ms total)
T15DC 001:074 JLINK_WriteReg(R3, 0x00000000)  returns 0x00 (0000ms, 0532ms total)
T15DC 001:074 JLINK_WriteReg(R4, 0x00000000)  returns 0x00 (0000ms, 0532ms total)
T15DC 001:074 JLINK_WriteReg(R5, 0x00000000)  returns 0x00 (0000ms, 0532ms total)
